# HZ S RI R 50
1000000 0.5033961469335825 -0.20232110812323292 -1.7485162423230018 -1.1562214043607602 0 0 0 0
9798000 0.11423012770966051 -0.14710616327400208 -1.8380996584026792 0.798863206794556 0 0 0 0
18596000 0.0790627003759346 -0.09077780645695523 -1.7035091153752946 0.634153124314006 0 0 0 0
27394000 0.0700766074202316 -0.06844419175117275 -1.620069634380984 0.5401820335837351 0 0 0 0
36192000 0.06595041564956516 -0.05768545333709116 -1.5705717266853558 0.5021355554962625 0 0 0 0
44990000 0.06595356501354466 -0.05147236503266834 -1.5382544427198952 0.4891271789163317 0 0 0 0
53788000 0.06388118069607471 -0.049154861874900396 -1.5141065464268564 0.4872074268344057 0 0 0 0
62586000 0.06363843876132212 -0.04702781862007112 -1.4988080139731081 0.4945019523330519 0 0 0 0
71384000 0.06323314795280253 -0.04724050774992629 -1.4884991522022832 0.5082162230323162 0 0 0 0
80182000 0.06362919482387255 -0.04681953908635616 -1.4833373364776938 0.5305274993467731 0 0 0 0
88980000 0.06316939201950013 -0.04744132819753564 -1.4799592737044542 0.5595443364309104 0 0 0 0
97778000 0.062287545409206016 -0.04886039778051318 -1.4738759658674698 0.596390083809587 0 0 0 0
106576000 0.06214473352534802 -0.04961621798329715 -1.4647208380996968 0.6388732065186893 0 0 0 0
115374000 0.061993665751015246 -0.05006915483784127 -1.450847673929604 0.6872346266229141 0 0 0 0
124172000 0.06275334088174936 -0.0522745171403822 -1.4298089994675744 0.7326677764536813 0 0 0 0
132970000 0.06433059268728074 -0.053775385266275344 -1.4024079766724442 0.7770490004102658 0 0 0 0
141768000 0.06485501265622226 -0.05494836387195916 -1.3894617523023767 0.8077529234709316 0 0 0 0
150566000 0.06452759909433939 -0.05661640980541919 -1.3596129537083055 0.8515458734173849 0 0 0 0
159364000 0.06439062590334943 -0.05809173496705178 -1.3267107346140443 0.8888887156878136 0 0 0 0
168162000 0.06344177379933078 -0.059947401479994084 -1.295782998142989 0.9255972832756855 0 0 0 0
176960000 0.06289601614445935 -0.06204063792954034 -1.2624965663404444 0.9550660354966417 0 0 0 0
185758000 0.06206167758305137 -0.06452175343229774 -1.231852088872919 0.9861625259343538 0 0 0 0
194556000 0.06200932743008214 -0.06670400519376919 -1.2047956320926758 1.0172908038493433 0 0 0 0
203354000 0.06112211538758713 -0.06868573346317738 -1.1774403199654186 1.0500483586129368 0 0 0 0
212152000 0.06042482709423279 -0.07125946586506021 -1.148594867923537 1.081228134921942 0 0 0 0
220950000 0.060244216869801026 -0.07330161675716053 -1.1210714403268338 1.1168233184853313 0 0 0 0
229748000 0.05968637525887687 -0.07519629010457234 -1.0868597246247378 1.1524326805546659 0 0 0 0
238546000 0.05886757852467233 -0.0775249518249752 -1.051262772506932 1.1935285423163307 0 0 0 0
247344000 0.05817011921877431 -0.07910256422585499 -1.0100691984283294 1.227361946352291 0 0 0 0
256142000 0.0565205259948299 -0.0817660020189643 -0.9636310519421274 1.2607114095329222 0 0 0 0
264940000 0.05447365869340056 -0.08416850680696607 -0.9164407661705257 1.287257425947785 0 0 0 0
273738000 0.053866650112062764 -0.08545630506252279 -0.8676879921944198 1.3114343418367325 0 0 0 0
282536000 0.05268892403800776 -0.08744480208338143 -0.8179452503136984 1.331165319711352 0 0 0 0
291334000 0.05148804395096311 -0.09009730324518535 -0.7688657165981522 1.3464860997868453 0 0 0 0
300132000 0.049243741937063795 -0.09292967824662503 -0.7243453317640411 1.356082087403338 0 0 0 0
308930000 0.047704939452680784 -0.09592854074613526 -0.6810175758405062 1.367835217026937 0 0 0 0
317728000 0.04637759625729616 -0.09765228508804895 -0.6397685618197553 1.3775059002734276 0 0 0 0
326526000 0.04445397753079785 -0.09966678133364386 -0.6015540783764629 1.3875076387907141 0 0 0 0
335324000 0.04261641478981929 -0.10276825513046489 -0.5612596311308049 1.3983702961458013 0 0 0 0
344122000 0.040538042357678376 -0.10484570442127707 -0.5199633658514229 1.405354583478242 0 0 0 0
352920000 0.039216126641609145 -0.10727934379564213 -0.47734804675173914 1.4137321139393801 0 0 0 0
361718000 0.03755698364329028 -0.11014940993254355 -0.43518544733090087 1.4160246953424906 0 0 0 0
370516000 0.03482716435201546 -0.11328293595107244 -0.39345359147759296 1.4139482424600693 0 0 0 0
379314000 0.0328637191013023 -0.11601024312044526 -0.3620157139895226 1.4072169361641234 0 0 0 0
388112000 0.030822148027103348 -0.11920511734389913 -0.34075683409900837 1.4072280660252325 0 0 0 0
396910000 0.029438646093695557 -0.1221447448621556 -0.32276403071073423 1.419049237015204 0 0 0 0
405708000 0.02786887131673869 -0.12510394247276171 -0.29901082173798355 1.4399643636359951 0 0 0 0
414506000 0.026820056675616755 -0.12831639993207225 -0.26361020707094723 1.4642847915266548 0 0 0 0
423304000 0.025322791987062308 -0.13154386861831852 -0.21876222840540335 1.4853844371760365 0 0 0 0
432102000 0.02458935420318349 -0.1349390434946617 -0.1684383597572876 1.5026107800538733 0 0 0 0
440900000 0.023307556405939255 -0.13719972603837038 -0.11485488425098918 1.5105002801442902 0 0 0 0
449698000 0.0224142571701604 -0.14041805315949007 -0.06139273970446582 1.5148697495897645 0 0 0 0
458496000 0.021244935241618766 -0.14299659759449843 -0.010337997486949949 1.514891647787126 0 0 0 0
467294000 0.020387344129450764 -0.14508201054373976 0.04140738711103118 1.5110296238828897 0 0 0 0
476092000 0.019849481747084046 -0.14736724631046594 0.08917945601260029 1.5046549941773397 0 0 0 0
484890000 0.01841758280375668 -0.150500632262074 0.1406496939326232 1.4946515981645745 0 0 0 0
493688000 0.017494007582619705 -0.1523295526368923 0.18585344677511306 1.4822036469996382 0 0 0 0
502486000 0.016130276386145042 -0.1545975888519698 0.23079507409785444 1.4689219552419703 0 0 0 0
511284000 0.014627012751842456 -0.15649318978051158 0.27463634626218947 1.4532884694840638 0 0 0 0
520082000 0.013048756687401354 -0.15893746530331254 0.3126454586746426 1.4382003264096306 0 0 0 0
528880000 0.012574224608257174 -0.1607063627505321 0.35091596473018644 1.420774070737641 0 0 0 0
537678000 0.01112736703239704 -0.1625463885029641 0.38518107053041845 1.4052600216428786 0 0 0 0
546476000 0.009572092842543463 -0.16449690120699065 0.42206426793820456 1.388552657160353 0 0 0 0
555274000 0.008657980531329941 -0.16590585980945619 0.45666143156924444 1.374294199885477 0 0 0 0
564072000 0.0060324582380000364 -0.16784146462738203 0.48876939070483594 1.3609285030790004 0 0 0 0
572870000 0.004016081946299343 -0.16989163036666638 0.5235116826917968 1.347830156999569 0 0 0 0
581668000 0.0022712017388748216 -0.17036415117172085 0.5601556422828774 1.3341780117189705 0 0 0 0
590466000 0.0014681239473516257 -0.17155773089368462 0.5974882112867407 1.3206495887089782 0 0 0 0
599264000 -0.0006897090694706995 -0.17205939122495076 0.6349152970250579 1.3051596518375632 0 0 0 0
608062000 -0.003017521929227042 -0.17339931622498542 0.6742280254539276 1.2882970394087156 0 0 0 0
616860000 -0.005587600780525784 -0.17513215921107148 0.714560786855136 1.2706721717248293 0 0 0 0
625658000 -0.007490381670005895 -0.1756404704176981 0.7557188095721549 1.2494053048610583 0 0 0 0
634456000 -0.010780644402237359 -0.17719536656240933 0.7947408287917057 1.2271470423051403 0 0 0 0
643254000 -0.013350126796175294 -0.17847690444011968 0.8352739008688761 1.2009571985065306 0 0 0 0
652052000 -0.01600441861502858 -0.17937045383907474 0.8762581396174838 1.1715202082480827 0 0 0 0
660850000 -0.019552672352457917 -0.18107066890754137 0.9132983066736484 1.1406910015175526 0 0 0 0
669648000 -0.02174222892602239 -0.18186074970795105 0.9525077338433705 1.10567229826453 0 0 0 0
678446000 -0.02395051436585106 -0.18342310279886653 0.9886837163919449 1.0677024322967348 0 0 0 0
687244000 -0.026681323594408772 -0.18490155974110473 1.0234303849630182 1.0250630491677302 0 0 0 0
696042000 -0.029565608445358584 -0.18652161584857466 1.0503255067325497 0.9813452335114555 0 0 0 0
704840000 -0.03267187553306569 -0.1882803232397474 1.0763917708803556 0.9330991042162647 0 0 0 0
713638000 -0.03470699716555696 -0.1895994993700458 1.0935983478303082 0.8890559056397435 0 0 0 0
722436000 -0.03713214252780269 -0.19065858922268375 1.106953716483168 0.8428295400509931 0 0 0 0
731234000 -0.04010716295362194 -0.1920787376769907 1.1145772309652104 0.8020040728890343 0 0 0 0
740032000 -0.042806145780369245 -0.19337345533503555 1.1191096616574268 0.7612926161377684 0 0 0 0
748830000 -0.04570391293155005 -0.1945277718347645 1.1228713792974478 0.7246231525384406 0 0 0 0
757628000 -0.04911651191367631 -0.19613887139100192 1.1244469204837153 0.694781565614644 0 0 0 0
766426000 -0.051358920534582964 -0.19750777223133145 1.1262508188238338 0.668472319283808 0 0 0 0
775224000 -0.05400604987370436 -0.1989764578991103 1.1283480177981307 0.6454283337935753 0 0 0 0
784022000 -0.0575265458383222 -0.19877283245775537 1.1367013187108523 0.6240237286454813 0 0 0 0
792820000 -0.05933353292170509 -0.19981482994113037 1.1449021792155383 0.6084425424080903 0 0 0 0
801618000 -0.06274306688003739 -0.20096432725246705 1.1604910788612757 0.5860442114780854 0 0 0 0
810416000 -0.06492112386286576 -0.20224539527998606 1.1763410487141346 0.5632778269380203 0 0 0 0
819214000 -0.06790550951518998 -0.20436403644011106 1.1936859082325846 0.5436446775989641 0 0 0 0
828012000 -0.06953147000564143 -0.20576197708302768 1.2103286479960331 0.5167006498218876 0 0 0 0
836810000 -0.07035958467576149 -0.2070595784237224 1.229844313623532 0.488861962300222 0 0 0 0
845608000 -0.07298060929588479 -0.20772091361804895 1.249660339700186 0.4601599326852417 0 0 0 0
854406000 -0.07561683394127128 -0.20827152601674032 1.2710044633699542 0.4215424432922013 0 0 0 0
863204000 -0.07785054294657326 -0.20870046150413607 1.287447071074327 0.3893643463427498 0 0 0 0
872002000 -0.0802397951081143 -0.21002265230878586 1.3038925446950205 0.353514679682346 0 0 0 0
880800000 -0.08231386778669901 -0.21091517647176852 1.321142956758748 0.31319644662739154 0 0 0 0
889598000 -0.08454740471708316 -0.21163146309994615 1.332173454677925 0.2733015996323952 0 0 0 0
898396000 -0.08699016877531761 -0.21293996141374924 1.3435696745721408 0.22983054660486346 0 0 0 0
907194000 -0.08951447259277497 -0.21321013763837982 1.3533087828153718 0.1853832486715099 0 0 0 0
915992000 -0.09165776793065288 -0.21309504703627288 1.3599397057657228 0.1414404194870873 0 0 0 0
924790000 -0.09421983711800272 -0.21443121810996282 1.3638562402329861 0.09533318392830582 0 0 0 0
933588000 -0.09667586359910328 -0.21540936944351435 1.3668012031463461 0.04866484666130581 0 0 0 0
942386000 -0.0985313847457451 -0.21708431881489373 1.3651123788592743 -0.0004020286784346489 0 0 0 0
951184000 -0.10108936587634813 -0.21741963268523126 1.3611020088194672 -0.04507354002281399 0 0 0 0
959982000 -0.10350890174229554 -0.2181604251568849 1.3534620196136067 -0.09796893746937457 0 0 0 0
968780000 -0.10632097455381578 -0.21905839852736622 1.341986646339859 -0.1441107384932578 0 0 0 0
977578000 -0.10809971177073284 -0.2200569256619434 1.3272134647747 -0.18724110671634084 0 0 0 0
986376000 -0.11106504616519079 -0.22059182458904267 1.3091035444651384 -0.23250105367330023 0 0 0 0
995174000 -0.11324763415110539 -0.22172670138844378 1.2872615493897495 -0.27029020609530535 0 0 0 0
1003972000 -0.11575451507055318 -0.22274745341541474 1.2627984299239543 -0.30859326478555277 0 0 0 0
1012770000 -0.11844038854807892 -0.22326302074733137 1.23953782762534 -0.3413406357491497 0 0 0 0
1021568000 -0.12029687685767423 -0.22363244751357347 1.2170287103272053 -0.36717923692084214 0 0 0 0
1030366000 -0.12296348455657363 -0.22463749704202782 1.1921471438309668 -0.39341708600029346 0 0 0 0
1039164000 -0.12445671687000687 -0.2249628303080275 1.1716956728601926 -0.4146412027754071 0 0 0 0
1047962000 -0.1269125749935044 -0.22575479977156393 1.1513206935979066 -0.43652071882895227 0 0 0 0
1056760000 -0.12879784169079586 -0.22574556344977434 1.1345448599422963 -0.45695163298182767 0 0 0 0
1065558000 -0.13080027829385157 -0.22625261005085573 1.1174241493136818 -0.47895632731139426 0 0 0 0
1074356000 -0.13304905805879635 -0.22615986631145973 1.105329252579299 -0.4939058647489078 0 0 0 0
1083154000 -0.13530704535033503 -0.22591331534918396 1.0931394367693474 -0.5107174426207798 0 0 0 0
1091952000 -0.13740852925391603 -0.22623208553562615 1.0805725672742261 -0.5352779245443605 0 0 0 0
1100750000 -0.13967681037711052 -0.22618763402099176 1.0705592657246619 -0.5565562020919351 0 0 0 0
1109548000 -0.14204931330925108 -0.22558473928227188 1.061094181771161 -0.5792389754696139 0 0 0 0
1118346000 -0.14355629178857046 -0.22527199450760138 1.0518063815939132 -0.6049924692807536 0 0 0 0
1127144000 -0.1454668037979885 -0.225736251610657 1.0392004557045038 -0.6326353696317143 0 0 0 0
1135942000 -0.14763018612484569 -0.22544943311838178 1.0267684723780786 -0.6619684514567937 0 0 0 0
1144740000 -0.1496949970550109 -0.22470785666944845 1.0155613048104073 -0.6903482153480764 0 0 0 0
1153538000 -0.15033947367959158 -0.2246355334430096 1.000554059383001 -0.7175857654331926 0 0 0 0
1162336000 -0.15296025442505215 -0.2239065585520627 0.9823222663995567 -0.7503308651825651 0 0 0 0
1171134000 -0.15423892340177667 -0.22402882246058062 0.9625388759246415 -0.7809965356604304 0 0 0 0
1179932000 -0.15597512269276617 -0.22363120604364511 0.9424122789902237 -0.8087704962128793 0 0 0 0
1188730000 -0.1578949963949453 -0.22244144810868566 0.9190901595564398 -0.8421636661001535 0 0 0 0
1197528000 -0.16014992790471397 -0.22214537716691232 0.894709148718117 -0.8712852868640774 0 0 0 0
1206326000 -0.1613430082371067 -0.22155189713229256 0.8678534720182692 -0.8981734788080152 0 0 0 0
1215124000 -0.16407263747992187 -0.22046856441144294 0.8377205175148037 -0.9266909353887276 0 0 0 0
1223922000 -0.16514588242676131 -0.22069162216135646 0.8060778862827863 -0.9525885303203452 0 0 0 0
1232720000 -0.16770536828788693 -0.2190515908721276 0.771056170197509 -0.9775062914208497 0 0 0 0
1241518000 -0.1697622150221946 -0.2197627288918678 0.7373977934066489 -0.9992520243851495 0 0 0 0
1250316000 -0.1717457777525519 -0.21893664597198373 0.7046688261002356 -1.0171272853135758 0 0 0 0
1259114000 -0.1741579049643771 -0.21779499899308397 0.666017503460227 -1.0356708239481567 0 0 0 0
1267912000 -0.17609452929002523 -0.21702514806287998 0.6292538808404288 -1.048177879040125 0 0 0 0
1276710000 -0.17789829844190286 -0.21772711952878945 0.5949187977298358 -1.0578604513995982 0 0 0 0
1285508000 -0.17915306456821947 -0.21803467191536016 0.5630234983588615 -1.0663242988489479 0 0 0 0
1294306000 -0.181253674688234 -0.2158390314225946 0.5265142186894691 -1.0761970854596954 0 0 0 0
1303104000 -0.18560372484128587 -0.21404383122171583 0.49308843650386763 -1.0800829628127078 0 0 0 0
1311902000 -0.1876010922947584 -0.2142552685024173 0.458781343652093 -1.0888624147025174 0 0 0 0
1320700000 -0.19014761429132945 -0.21458259199368823 0.4274610588838696 -1.0929512360306577 0 0 0 0
1329498000 -0.19116737274937076 -0.21490231266474474 0.4007938652879708 -1.0957353209212426 0 0 0 0
1338296000 -0.19352081809956387 -0.21427208932967043 0.3673060203782722 -1.1016460943128774 0 0 0 0
1347094000 -0.19528045606578912 -0.21378795052767594 0.3414257710499727 -1.1013933736094612 0 0 0 0
1355892000 -0.19853540669528905 -0.2131361883375699 0.31669876048642653 -1.1030920234909483 0 0 0 0
1364690000 -0.1993331903894418 -0.2105712003845484 0.2914583813415102 -1.1058019115263844 0 0 0 0
1373488000 -0.19955246083577835 -0.21040841067942284 0.2689090921716788 -1.1079302271778766 0 0 0 0
1382286000 -0.20408519920734677 -0.21167254108420921 0.24088572207956763 -1.1116227656905435 0 0 0 0
1391084000 -0.2064456672369877 -0.21087729377276673 0.21893638360793105 -1.1149121711713836 0 0 0 0
1399882000 -0.2057336113906547 -0.20998051673720058 0.1940415806659995 -1.119609824223964 0 0 0 0
1408680000 -0.20731798331451143 -0.20916235776202532 0.16701838385791545 -1.1240665980275537 0 0 0 0
1417478000 -0.20999514852190798 -0.20960888166006028 0.1380393560560565 -1.132001828270759 0 0 0 0
1426276000 -0.21179185182785012 -0.2098392328261143 0.11351821350168989 -1.1358462942660363 0 0 0 0
1435074000 -0.2126869017739312 -0.2100518308293082 0.08523459865708101 -1.1407715882120035 0 0 0 0
1443872000 -0.2138689651957962 -0.2086210562104488 0.05744830686500316 -1.1464045767729791 0 0 0 0
1452670000 -0.2150226945930512 -0.20838200216710467 0.025475995187503372 -1.15147283775341 0 0 0 0
1461468000 -0.2161410744820679 -0.2077640346504289 -0.0040753681607909285 -1.1558998330718047 0 0 0 0
1470266000 -0.21695972892874024 -0.2069653070304669 -0.03720061992793945 -1.1574708682415904 0 0 0 0
1479064000 -0.21684348991234384 -0.20764925516904725 -0.0719793368447714 -1.1589151173499959 0 0 0 0
1487862000 -0.21833152694198105 -0.20646063722655758 -0.11080206731144052 -1.1571267497542865 0 0 0 0
1496660000 -0.21809770827902214 -0.20654366047610748 -0.145951884632776 -1.1541317192897222 0 0 0 0
1505458000 -0.219568296092975 -0.2058595019483792 -0.1789209958870707 -1.1508233050838406 0 0 0 0
1514256000 -0.22061563861587696 -0.20387164786342457 -0.21906256121228307 -1.141690166792695 0 0 0 0
1523054000 -0.22225629131925223 -0.20358568123813972 -0.25870423773924356 -1.1311617285430666 0 0 0 0
1531852000 -0.22426527719755263 -0.20252623787116866 -0.2891104328941854 -1.1195893060628288 0 0 0 0
1540650000 -0.22496325625478608 -0.20216633644000187 -0.32245126118781686 -1.105856025863186 0 0 0 0
1549448000 -0.22503252063143683 -0.2012815603976424 -0.34998374452423503 -1.0915362747217934 0 0 0 0
1558246000 -0.22590258575961078 -0.19996299857403887 -0.37909827528337725 -1.0763127143130842 0 0 0 0
1567044000 -0.2273633349530867 -0.19843985788230223 -0.4065105608817884 -1.05787324635837 0 0 0 0
1575842000 -0.22782807232017424 -0.19724153156384958 -0.4386336417887762 -1.0379585354047438 0 0 0 0
1584640000 -0.2288504050736615 -0.19474460402537946 -0.46738386379089214 -1.019401651261542 0 0 0 0
1593438000 -0.22936016374694648 -0.1935921573701214 -0.4837936693815766 -1.0038133727511138 0 0 0 0
1602236000 -0.2299167079288782 -0.19161360697702784 -0.5107595169278097 -0.9850566461596617 0 0 0 0
1611034000 -0.2313988882940951 -0.19010377872154433 -0.5309511073616248 -0.970023396515337 0 0 0 0
1619832000 -0.23380446825405818 -0.1876485298460361 -0.5540111308632458 -0.9528802002934172 0 0 0 0
1628630000 -0.2338713873447291 -0.1864143743207574 -0.5776984872244902 -0.9339222225035863 0 0 0 0
1637428000 -0.23501078745278603 -0.18534070794749175 -0.598113556046052 -0.9186482949986892 0 0 0 0
1646226000 -0.2362959442766419 -0.18352038464734485 -0.6213432322230709 -0.8967712221421351 0 0 0 0
1655024000 -0.23748478172638063 -0.1810223410768292 -0.6386371044022899 -0.8784075152629223 0 0 0 0
1663822000 -0.238532234858091 -0.178938861385213 -0.6566285982804313 -0.8602230378420026 0 0 0 0
1672620000 -0.24060198932459068 -0.1766921827287099 -0.6761166544911547 -0.8384615420032441 0 0 0 0
1681418000 -0.24088035271069388 -0.17625991558871687 -0.687590632796039 -0.8247064655926503 0 0 0 0
1690216000 -0.2430415263801447 -0.1740724500479442 -0.7086641640742721 -0.8014999066609291 0 0 0 0
1699014000 -0.2439078318442976 -0.17190611790458743 -0.7234099574073647 -0.784771154527752 0 0 0 0
1707812000 -0.24484939124785085 -0.17074981977074957 -0.7393324650467372 -0.7692580555935914 0 0 0 0
1716610000 -0.2457445780956009 -0.16986320664912488 -0.7561975652995981 -0.7531125034534483 0 0 0 0
1725408000 -0.24632719525087046 -0.16841585285745142 -0.7688304702867623 -0.7442048259533679 0 0 0 0
1734206000 -0.248460603822174 -0.16573490784859926 -0.7904946299403912 -0.7310842799172286 0 0 0 0
1743004000 -0.2494491065871596 -0.1642314288717751 -0.8153173037432621 -0.7109136340497677 0 0 0 0
1751802000 -0.25003147596504 -0.16402259599927477 -0.836498052790959 -0.6971587167677527 0 0 0 0
1760600000 -0.25167607386581653 -0.1628715190211659 -0.8610320811876245 -0.6781929121418274 0 0 0 0
1769398000 -0.2532462064492173 -0.16088777816387576 -0.8894645675918159 -0.6519846782740923 0 0 0 0
