# HZ S RI R 50
1000000 0.5087641105933987 -0.21327450047493718 -1.8682657774725016 -0.8973188596446339 0 0 0 0
9798000 0.11374173920747109 -0.14719617350829442 -1.2731423578904413 0.7205560774682084 0 0 0 0
18596000 0.0787236298810911 -0.0904007628748607 -1.0778258272349432 0.4717600714883168 0 0 0 0
27394000 0.06976932980432972 -0.06790406022810505 -1.0240094925539758 0.38564203878518427 0 0 0 0
36192000 0.06558297654000672 -0.05683118845204789 -0.995444376681758 0.3505810374359487 0 0 0 0
44990000 0.06528191935095753 -0.05040064946138606 -0.9759610809579645 0.33583726676829845 0 0 0 0
53788000 0.06323328124984486 -0.04827724970420873 -0.9619356104675829 0.3300730769254616 0 0 0 0
62586000 0.0628429799496931 -0.04609388375578188 -0.9530238778722308 0.3321375556008952 0 0 0 0
71384000 0.062244181531827196 -0.046052304531946385 -0.9472793606980606 0.3386024895630035 0 0 0 0
80182000 0.0626295373994421 -0.045561712895641024 -0.9442124905099076 0.3512129463429484 0 0 0 0
88980000 0.061884330854749765 -0.046491517751793034 -0.9425616017832773 0.36868628081276544 0 0 0 0
97778000 0.06113675614825132 -0.04837382476455326 -0.9390321580536306 0.3910844713670194 0 0 0 0
106576000 0.06070586130599815 -0.04888890761344764 -0.9336627791528241 0.4170829169403771 0 0 0 0
115374000 0.06043084250998888 -0.04981039980110932 -0.9246077897428071 0.4472805140943176 0 0 0 0
124172000 0.061342131882429166 -0.05200751336999623 -0.9113708170567429 0.4759215044329476 0 0 0 0
132970000 0.06228976555712503 -0.053772536828093645 -0.894331814138547 0.5034937405803198 0 0 0 0
141768000 0.062397286015967605 -0.055120509348435674 -0.881218226799362 0.5266246830755139 0 0 0 0
150566000 0.06175853708198921 -0.05703954113263732 -0.8616110518180043 0.5533203457183018 0 0 0 0
159364000 0.06141161001338659 -0.058778737138345596 -0.8409823688493763 0.577091936985092 0 0 0 0
168162000 0.06053428394222204 -0.06069709931187166 -0.8205170107345545 0.5985472548247028 0 0 0 0
176960000 0.06000139032568181 -0.06324664680209394 -0.8001910198148706 0.6178890051413478 0 0 0 0
185758000 0.05911406778887128 -0.0662285607833242 -0.7815788773480652 0.6369625823645773 0 0 0 0
194556000 0.05903875692783276 -0.06801573605933708 -0.7630901533193916 0.6566543179691797 0 0 0 0
203354000 0.05848139761116164 -0.07038327697454658 -0.7458316935428997 0.6757678429809603 0 0 0 0
212152000 0.057418330436715376 -0.07298899839332043 -0.727403184107537 0.6970877414753447 0 0 0 0
220950000 0.05741306135427936 -0.07537136179851468 -0.7106120621512046 0.7186339614407821 0 0 0 0
229748000 0.05703145667839377 -0.0772455202661607 -0.6893432877023744 0.741249311758126 0 0 0 0
238546000 0.05638990686526007 -0.07934436514895918 -0.6667012393491779 0.7665850333146323 0 0 0 0
247344000 0.055565406878597776 -0.08134225703173827 -0.64077979940094 0.7872895444436596 0 0 0 0
256142000 0.05444272427993684 -0.08350441684510942 -0.6119298739970909 0.8087003053454257 0 0 0 0
264940000 0.052428054083537436 -0.08630441304490072 -0.5817991862509639 0.8259169833341664 0 0 0 0
273738000 0.05194280574783171 -0.08809233945450262 -0.5511267396029077 0.8417347322177713 0 0 0 0
282536000 0.05112953847185982 -0.08995302531143294 -0.5193953636411267 0.8536198225361432 0 0 0 0
291334000 0.05050256258236492 -0.09200094071161931 -0.4888902402015659 0.8630846313801276 0 0 0 0
300132000 0.04845478463432898 -0.09476095960591017 -0.46128485007281744 0.869681280831758 0 0 0 0
308930000 0.04696176887306548 -0.09722315433938536 -0.4339152409693138 0.8763282855221668 0 0 0 0
317728000 0.04590028708775605 -0.09916983673239652 -0.407729214596921 0.8831219281698622 0 0 0 0
326526000 0.044261787262958104 -0.10098703661376754 -0.3833139901384251 0.8896561779600661 0 0 0 0
335324000 0.04232343271125835 -0.10363783126564179 -0.3579947568749877 0.8967338319926471 0 0 0 0
344122000 0.040667856882260434 -0.10586072607330102 -0.33228768863593927 0.9017124975904067 0 0 0 0
352920000 0.039286903779993915 -0.10800743115251857 -0.3043917446363306 0.9076911075337123 0 0 0 0
361718000 0.03738283562814868 -0.11104970727655288 -0.2779051903423433 0.9091902635774993 0 0 0 0
370516000 0.034612898469119184 -0.11343311693059245 -0.2518904813120258 0.9084388414493713 0 0 0 0
379314000 0.033087741583254726 -0.11589513523403755 -0.2320453436084497 0.9051922855935379 0 0 0 0
388112000 0.03109876884193061 -0.11875688490786099 -0.2184900352594729 0.9054879307200855 0 0 0 0
396910000 0.02963854443025728 -0.12154648817523846 -0.20638751388785603 0.9133273904782597 0 0 0 0
405708000 0.028009803553895478 -0.12421528375982577 -0.19071489768824204 0.9272256692839774 0 0 0 0
414506000 0.026460737550053876 -0.12697954441697562 -0.16686046518448777 0.9435004451589662 0 0 0 0
423304000 0.025294696019051092 -0.12983786437589234 -0.13753935071644513 0.9569014763542357 0 0 0 0
432102000 0.02406396297783895 -0.1331674943400528 -0.10500832077259847 0.9675449332496713 0 0 0 0
440900000 0.02288481189478917 -0.13544779048713235 -0.0704267678322095 0.9729807589791203 0 0 0 0
449698000 0.021670755787782173 -0.1380497834119725 -0.03473448890072167 0.9753888253965471 0 0 0 0
458496000 0.019631175908132147 -0.14100365974683599 -0.001507953334659454 0.9752112851821209 0 0 0 0
467294000 0.018734220559982376 -0.14279095915062107 0.03202731460004239 0.9727873719903397 0 0 0 0
476092000 0.01796559457849645 -0.14478367915394136 0.06327246271707085 0.967720375304021 0 0 0 0
484890000 0.016250116192228235 -0.14756497814888697 0.09649399033825788 0.960797770673198 0 0 0 0
493688000 0.01493022429784651 -0.1495465323928882 0.1258553896699821 0.952512637593647 0 0 0 0
502486000 0.01312655472229419 -0.15142407756701506 0.15416978694458827 0.9430968613387729 0 0 0 0
511284000 0.011986211938732404 -0.15379277363028684 0.18268957124527105 0.9331677274549147 0 0 0 0
520082000 0.009926456314796077 -0.15589111474809506 0.20698338038840935 0.9230738599057596 0 0 0 0
528880000 0.008865836843467829 -0.1579332353409293 0.23149385323612 0.9115950227565758 0 0 0 0
537678000 0.007073474499855699 -0.1598699551908758 0.25353411071618626 0.9014562956709815 0 0 0 0
546476000 0.0062738500553945285 -0.16138278643740805 0.27699304460184676 0.8904638982242945 0 0 0 0
555274000 0.004819213961159195 -0.16336242444320084 0.299298531851283 0.8809895619123437 0 0 0 0
564072000 0.001923252897761949 -0.16530475700459 0.3196178635211484 0.8722727203432936 0 0 0 0
572870000 -6.0154077487147694e-05 -0.16769948869437667 0.34120712510704493 0.8637636299915936 0 0 0 0
581668000 -0.002045872137315144 -0.1683867863511091 0.36627632305039903 0.8541791485252236 0 0 0 0
590466000 -0.002913159828823598 -0.16980469768166057 0.3888621500598949 0.8456402051066738 0 0 0 0
599264000 -0.005026827771541435 -0.1708931492880522 0.41239872282564777 0.8358693264665233 0 0 0 0
608062000 -0.007005861001680195 -0.17165885514114562 0.43789796644426693 0.8248160955495965 0 0 0 0
616860000 -0.009770270304374941 -0.1737681357829482 0.4646767980363424 0.8121558639559897 0 0 0 0
625658000 -0.011475653755185023 -0.17444854007592211 0.49081486284598685 0.7986995759896187 0 0 0 0
634456000 -0.014473237841232812 -0.1760695073737418 0.5154237527497358 0.7847151583316981 0 0 0 0
643254000 -0.017409701507828394 -0.17742737810323211 0.5417573935773105 0.7671906013802301 0 0 0 0
652052000 -0.0199884185619452 -0.17838994532183905 0.5679701633937317 0.7474749780980496 0 0 0 0
660850000 -0.02311383453304501 -0.1801658821249177 0.5909389086619863 0.727506943705452 0 0 0 0
669648000 -0.025291643677349235 -0.18120230006384652 0.6165626958124534 0.7049302922871243 0 0 0 0
678446000 -0.02728287936330259 -0.18220735925932285 0.6390239453254868 0.6791741692710531 0 0 0 0
687244000 -0.029811539741673745 -0.18370188694874245 0.6600530086018419 0.6523999379378735 0 0 0 0
696042000 -0.03239502236710434 -0.18560564350321673 0.6776858282192697 0.6235306891471374 0 0 0 0
704840000 -0.03519424061274744 -0.1872040792782133 0.6934499737011871 0.5923445035930834 0 0 0 0
713638000 -0.037335455541808116 -0.18844781929752388 0.7036172230448642 0.5651414106061892 0 0 0 0
722436000 -0.039516043455541994 -0.18964603903536287 0.7119698997200741 0.5344523586177204 0 0 0 0
731234000 -0.04202161877318779 -0.190714313774203 0.7160857088954253 0.5088199339244601 0 0 0 0
740032000 -0.044577474916242504 -0.19198890599494145 0.7186524112021185 0.4828005466013151 0 0 0 0
748830000 -0.047341276396156526 -0.19287357135721483 0.7207745822855931 0.45884026646033227 0 0 0 0
757628000 -0.05001619187791394 -0.19430633985505644 0.7208150721142539 0.4411068466193381 0 0 0 0
766426000 -0.05219373440872146 -0.19559154237033521 0.7221968328070518 0.4234773883911236 0 0 0 0
775224000 -0.0556135215976266 -0.19695387786264498 0.7238013439941958 0.40953919619455276 0 0 0 0
784022000 -0.05824618839265044 -0.19655995184445274 0.727947447212446 0.39611231947573 0 0 0 0
792820000 -0.06050645144239061 -0.1976756037358855 0.7338380337752741 0.3854538900638386 0 0 0 0
801618000 -0.06262476651701085 -0.19786155379855588 0.7420918065245069 0.37202300551215234 0 0 0 0
810416000 -0.0661314243249957 -0.2000100316880064 0.7525950701907633 0.3578466382033192 0 0 0 0
819214000 -0.06859629528741133 -0.20135362376870417 0.7640451162264122 0.34487203181448334 0 0 0 0
828012000 -0.07027475020524974 -0.2025589685541145 0.7749061911050177 0.3273852709977129 0 0 0 0
836810000 -0.07080042530623776 -0.20369278826335477 0.7875741327521013 0.3095209129084523 0 0 0 0
845608000 -0.07359248868879602 -0.20422261631945593 0.7995620321470674 0.2917770205714376 0 0 0 0
854406000 -0.07694942128065166 -0.2046994868995398 0.8134942452548253 0.2662877641838644 0 0 0 0
863204000 -0.07855607198764782 -0.20552907694222225 0.823730553566976 0.24694010463626784 0 0 0 0
872002000 -0.08140203737272862 -0.20679959454599833 0.8348733844444913 0.2235009863910239 0 0 0 0
880800000 -0.08296229624991205 -0.207293347003769 0.8453886734430267 0.1975319836997495 0 0 0 0
889598000 -0.0857923872487323 -0.2080668465269197 0.8526405292557467 0.17158648086886955 0 0 0 0
898396000 -0.08798322441941984 -0.20957327195434403 0.8600143908628581 0.14410894828006732 0 0 0 0
907194000 -0.09053117153300207 -0.20949888722415874 0.8660468875261624 0.11476923526295499 0 0 0 0
915992000 -0.09314344447825791 -0.2094978252113008 0.8699495504326825 0.08650305168144531 0 0 0 0
924790000 -0.09522454261876143 -0.21101385572950257 0.8720754308634987 0.057677787840265934 0 0 0 0
933588000 -0.098188176489961 -0.21144976474339083 0.8732954566520365 0.026911279095626715 0 0 0 0
942386000 -0.10042460147117056 -0.2130016496052664 0.8723117393355608 -0.00442311025239216 0 0 0 0
951184000 -0.10225452477791905 -0.21373070403495292 0.869216152727534 -0.032997029258989855 0 0 0 0
959982000 -0.10451127936584939 -0.2145418983050446 0.8632781751947564 -0.06593387048391111 0 0 0 0
968780000 -0.10747880380419873 -0.21525076214416372 0.8560086073747734 -0.09546650415494452 0 0 0 0
977578000 -0.10967174555532694 -0.21614455247183556 0.8457766718752581 -0.12379321407192485 0 0 0 0
986376000 -0.11234191051911883 -0.2169422363805672 0.8329491612078664 -0.1518192555640639 0 0 0 0
995174000 -0.11426218574726689 -0.218298552715408 0.8191507993857327 -0.1754733399382804 0 0 0 0
1003972000 -0.11693613507402777 -0.21863036709259134 0.8036747118121186 -0.19925206899108946 0 0 0 0
1012770000 -0.11923113702858047 -0.2194016432495451 0.7882951650814018 -0.21991715219176886 0 0 0 0
1021568000 -0.12076477462158465 -0.2195822692333068 0.7736562181669435 -0.2359160937072677 0 0 0 0
1030366000 -0.12349271221231757 -0.22030885701596503 0.7578646829088461 -0.25217737885729224 0 0 0 0
1039164000 -0.12460998889273912 -0.2207424168544372 0.7450533120704483 -0.26536954525635326 0 0 0 0
1047962000 -0.12688837311794113 -0.22133272629649398 0.7318286779853695 -0.27779897287215793 0 0 0 0
1056760000 -0.12881888528676205 -0.22134570470037596 0.7215642984288219 -0.2917164502570616 0 0 0 0
1065558000 -0.13011038799070204 -0.22156578272852706 0.7103190172570086 -0.3044562482964809 0 0 0 0
1074356000 -0.13245087424560661 -0.22196718388100567 0.7033151169525617 -0.31324240062673875 0 0 0 0
1083154000 -0.1347735546343829 -0.22186701502298897 0.6951723011173018 -0.3253266705973742 0 0 0 0
1091952000 -0.13692006876949595 -0.22182411025306337 0.6875526449083238 -0.33987145046962836 0 0 0 0
1100750000 -0.13933618653267574 -0.22187220105578903 0.6814986426443406 -0.35360033964726983 0 0 0 0
1109548000 -0.1409215671973008 -0.22128702683831752 0.6759743330408113 -0.36762824599018007 0 0 0 0
1118346000 -0.14264386048263672 -0.22081374784458915 0.6703858632974478 -0.3835523678286632 0 0 0 0
1127144000 -0.14436540036064124 -0.2208496249293809 0.6621885718107305 -0.4017865964711856 0 0 0 0
1135942000 -0.1467848095334587 -0.220814218660119 0.6544499498348695 -0.4211471022235577 0 0 0 0
1144740000 -0.148778997219377 -0.22049911646486278 0.6474048484457621 -0.4391218263390657 0 0 0 0
1153538000 -0.1496709014345007 -0.21943136749084557 0.6371432853459202 -0.45725591592788617 0 0 0 0
1162336000 -0.1524402696146087 -0.21959499774116764 0.6256382193813133 -0.47846508032399504 0 0 0 0
1171134000 -0.1539300363791459 -0.2199272466542248 0.6135278276266182 -0.4973626828910056 0 0 0 0
1179932000 -0.15557586116183833 -0.21913874883618925 0.600911227292717 -0.5146314458229756 0 0 0 0
1188730000 -0.1570992364443606 -0.21817573393620265 0.5855443726123469 -0.5361150843870547 0 0 0 0
1197528000 -0.15927647563892447 -0.21736733063866256 0.5699872431238278 -0.5541122874514453 0 0 0 0
1206326000 -0.1615298556077249 -0.21728842397471634 0.5522973117244558 -0.5726369718276016 0 0 0 0
1215124000 -0.16392413397760033 -0.21604547013837386 0.5329323478256428 -0.5904605520201252 0 0 0 0
1223922000 -0.16502850398634894 -0.21590169303729345 0.5127574067900543 -0.6062493876831982 0 0 0 0
1232720000 -0.16747874442645302 -0.21446278187692613 0.49056497002255683 -0.6213425847307227 0 0 0 0
1241518000 -0.1698380522707072 -0.21523985985470792 0.4685684754001241 -0.6358431681514242 0 0 0 0
1250316000 -0.17130375357404404 -0.21377343985555428 0.44830367724697645 -0.6464751597818231 0 0 0 0
1259114000 -0.1733708613228882 -0.21311286151052453 0.4243077822823174 -0.6576611224383189 0 0 0 0
1267912000 -0.1754222716771905 -0.21173296450831022 0.40172116058460744 -0.6651978250777194 0 0 0 0
1276710000 -0.17714929790329004 -0.21218210560733589 0.37830968575320845 -0.6711779244307243 0 0 0 0
1285508000 -0.1790042891119254 -0.21243692290834368 0.35890743818863663 -0.6765042160231135 0 0 0 0
1294306000 -0.1802483612956847 -0.2107991074094572 0.33675034369860873 -0.6826478130018345 0 0 0 0
1303104000 -0.1848118697500003 -0.2080533204946174 0.3147580536983035 -0.6855186807352304 0 0 0 0
1311902000 -0.18638608237102794 -0.20823034664012757 0.29398456958541497 -0.6902134897113794 0 0 0 0
1320700000 -0.18877652409326187 -0.208731102437972 0.2743121143071987 -0.6934669830470584 0 0 0 0
1329498000 -0.19013171744676216 -0.20820967513256244 0.25649554397424845 -0.6950109572788914 0 0 0 0
1338296000 -0.19171761682015007 -0.20823282287091768 0.23674891251813307 -0.6987691622528973 0 0 0 0
1347094000 -0.19434472144641773 -0.20636805486897403 0.21974315473999276 -0.699340271314767 0 0 0 0
1355892000 -0.19727428682180453 -0.20564514985273766 0.20268315677677243 -0.7006355044052716 0 0 0 0
1364690000 -0.1979754578346757 -0.2035950803087434 0.18868453534228521 -0.7023619602877096 0 0 0 0
1373488000 -0.1989085716968954 -0.20289469574207464 0.174480506783702 -0.7041523465279904 0 0 0 0
1382286000 -0.20354307495728105 -0.20433921876955166 0.1548489686952559 -0.7071947757740028 0 0 0 0
1391084000 -0.2050798631270748 -0.20389529584211294 0.1428774079471482 -0.7087642698609061 0 0 0 0
1399882000 -0.20548188939261838 -0.20261867245688917 0.12595425197603502 -0.7125764699841347 0 0 0 0
1408680000 -0.20676618132668184 -0.20182019075792945 0.10965330912278604 -0.7149660081806539 0 0 0 0
1417478000 -0.2098328308375418 -0.2016787856969423 0.09166983334540077 -0.7203497604608056 0 0 0 0
1426276000 -0.21180576747576815 -0.20163793906857155 0.0750194769858514 -0.7225010880606101 0 0 0 0
1435074000 -0.21313752555549148 -0.20188735495183358 0.0572059162146398 -0.7262729585551558 0 0 0 0
1443872000 -0.21406913724053023 -0.20032775127206107 0.03968447517810747 -0.7295735713157899 0 0 0 0
1452670000 -0.21585820537699416 -0.19954605645241322 0.019376901595059292 -0.7328718961892244 0 0 0 0
1461468000 -0.21714291420897794 -0.1986894219920283 -0.00046009483589443394 -0.7355856764792137 0 0 0 0
1470266000 -0.21857614683835364 -0.19773716330772834 -0.0215742326670579 -0.7365386818345742 0 0 0 0
1479064000 -0.21915676152641247 -0.19846880458338273 -0.04413907374854448 -0.7374992265061608 0 0 0 0
1487862000 -0.22089035169948235 -0.19708683487082082 -0.06803250019933722 -0.7362308844780644 0 0 0 0
1496660000 -0.22065167242721415 -0.19747046923659733 -0.09067173597031761 -0.7346755998195308 0 0 0 0
1505458000 -0.22245266775620545 -0.19654054023613654 -0.11216996398739616 -0.7320429269918185 0 0 0 0
1514256000 -0.22332003404671213 -0.19576857124225222 -0.13664624646798665 -0.7261625034653286 0 0 0 0
1523054000 -0.22460056160924843 -0.1950315188490493 -0.16227420070004445 -0.7195884699838608 0 0 0 0
1531852000 -0.22704743793480647 -0.19433437091373706 -0.18160452788955136 -0.7121928046236805 0 0 0 0
1540650000 -0.22839755414192464 -0.19391405343737683 -0.20215207080474532 -0.7035045440388484 0 0 0 0
1549448000 -0.2283184571760393 -0.1931927907890495 -0.22124854239803285 -0.6939506616285223 0 0 0 0
1558246000 -0.22912796268702354 -0.1920879164962631 -0.23828569532834445 -0.6844225756464017 0 0 0 0
1567044000 -0.23038494223731876 -0.19073335654203394 -0.2555409407999286 -0.6729712374710098 0 0 0 0
1575842000 -0.23103493212681875 -0.1896603273815975 -0.2767966918612021 -0.6608418346666756 0 0 0 0
1584640000 -0.23195044250297994 -0.18713892364064583 -0.295025516622602 -0.6478406582665862 0 0 0 0
1593438000 -0.2317445548110945 -0.18678285976503098 -0.30374014503445385 -0.6390437691110292 0 0 0 0
1602236000 -0.2324269618573942 -0.18450075869659463 -0.32131525361158897 -0.6274189550140162 0 0 0 0
1611034000 -0.23413635785721956 -0.18314038561199647 -0.33453677559080636 -0.6172529557358782 0 0 0 0
1619832000 -0.23605401799017225 -0.180786614370327 -0.34959543427837775 -0.6067325780350308 0 0 0 0
1628630000 -0.2358612624051099 -0.17912464859786809 -0.3641658442607416 -0.5952214733184477 0 0 0 0
1637428000 -0.23658049278476648 -0.17842107929223092 -0.37602029627630723 -0.5854384877578828 0 0 0 0
1646226000 -0.23793176275746047 -0.17685346371261776 -0.391745011367658 -0.5718356657434095 0 0 0 0
1655024000 -0.23903615192658773 -0.17466961329249844 -0.4023301550799846 -0.5608474259953982 0 0 0 0
1663822000 -0.23978381671833848 -0.17278754450674672 -0.41480705801203427 -0.547669502452988 0 0 0 0
1672620000 -0.24199330331796265 -0.17009657977877327 -0.4266201635141183 -0.5352129123666672 0 0 0 0
1681418000 -0.2423898693431356 -0.16908966145407886 -0.4347659790914722 -0.5258994927220715 0 0 0 0
1690216000 -0.24426830576112685 -0.16671681079271694 -0.4483765848384123 -0.5107603544582913 0 0 0 0
1699014000 -0.2445563291362783 -0.16606719404875217 -0.4559213092411642 -0.50180480582372 0 0 0 0
1707812000 -0.24582278563491544 -0.16365011553055422 -0.467080182570901 -0.49133727371809316 0 0 0 0
1716610000 -0.24706738737334816 -0.16170329217276197 -0.4778705964542856 -0.48047344471244685 0 0 0 0
1725408000 -0.2474541908981281 -0.16010990893487903 -0.4866362132467011 -0.4745246013965154 0 0 0 0
1734206000 -0.24913621493999358 -0.15778180745873246 -0.4998787018757082 -0.4672245656046987 0 0 0 0
1743004000 -0.2502689666478258 -0.15593890571124705 -0.5154284043191828 -0.4547185512708695 0 0 0 0
1751802000 -0.25181415854088934 -0.1546909692712986 -0.5303755079052102 -0.44413291818062545 0 0 0 0
1760600000 -0.25243852614167295 -0.15343205564363088 -0.5456786403993158 -0.4325853982191122 0 0 0 0
