# HZ S RI R 50
1000000 0.5282891162541806 -0.2233929302529392 -1.85889217576258 -0.6586871935524287 0 0 0 0
9798000 0.09832640775956579 -0.15624226641737476 -0.7207982500715607 0.6045264715847479 0 0 0 0
18596000 0.06291574545476701 -0.09522922750902524 -0.6009685912311772 0.3568247849922358 0 0 0 0
27394000 0.053001043859646546 -0.07092245877024071 -0.5723827784023844 0.2745067748341868 0 0 0 0
36192000 0.04965152239819059 -0.05901351740453942 -0.5578090996292381 0.23824141757972292 0 0 0 0
44990000 0.04903072859494066 -0.051882409244551835 -0.5482280167254203 0.220424791794413 0 0 0 0
53788000 0.047514154871459366 -0.04919743766617691 -0.5413998013959429 0.21060259592463507 0 0 0 0
62586000 0.04729224376303073 -0.046845485650990476 -0.5373111664894443 0.20708037132755938 0 0 0 0
71384000 0.046620444411964126 -0.04664844127316719 -0.5346917965096609 0.2077682818189935 0 0 0 0
80182000 0.0475024663754929 -0.04570672659907316 -0.5340157491210658 0.21237618897927937 0 0 0 0
88980000 0.04721297037616744 -0.04600008272770226 -0.5337129877076393 0.22000687792973941 0 0 0 0
97778000 0.04694928036650913 -0.047654110305817066 -0.5321114091076069 0.2313422960867566 0 0 0 0
106576000 0.04607390949231016 -0.04793116764295041 -0.5293162027731676 0.2451251096998267 0 0 0 0
115374000 0.046410305636394054 -0.0484532806704722 -0.5246179033954981 0.2609226557427478 0 0 0 0
124172000 0.04624011985389385 -0.050197952774532734 -0.5176130528828154 0.27626599517457073 0 0 0 0
132970000 0.0480082594999271 -0.052208883905304294 -0.5083404903325237 0.29105765292822 0 0 0 0
141768000 0.04829411078374054 -0.0525521551438904 -0.5019088411938192 0.3051103266359205 0 0 0 0
150566000 0.04817396335071187 -0.05373974908306844 -0.491233700663982 0.31940707430311543 0 0 0 0
159364000 0.047951618102561044 -0.055095028518917094 -0.47959760262611617 0.3325030322729488 0 0 0 0
168162000 0.047059505907595556 -0.05662840959910042 -0.46839188842095825 0.34409173550587213 0 0 0 0
176960000 0.046472050662469615 -0.058457967414502605 -0.45695357886728993 0.35478804387947016 0 0 0 0
185758000 0.045478463648331344 -0.060745180324001356 -0.44664303086431856 0.36545893575127897 0 0 0 0
194556000 0.045397534929083785 -0.06225985899060813 -0.43682247522743717 0.37584075354727686 0 0 0 0
203354000 0.04475855832375899 -0.06409749889825707 -0.42723469585372176 0.3864482478231705 0 0 0 0
212152000 0.04392604738078611 -0.06603914110672478 -0.4174625536738141 0.3981743427692306 0 0 0 0
220950000 0.043495907121515805 -0.06790769433518419 -0.40791364341626457 0.41010492861566805 0 0 0 0
229748000 0.04309593258249609 -0.06954649850610363 -0.39667592322645484 0.4229663287186617 0 0 0 0
238546000 0.042349189234046916 -0.07109658799707597 -0.3841685746911025 0.43708486831504156 0 0 0 0
247344000 0.04118536506441376 -0.072298017068364 -0.3698386597791313 0.4488095591445506 0 0 0 0
256142000 0.040010944358442185 -0.0740526495814091 -0.35410928725469504 0.4611091800899618 0 0 0 0
264940000 0.0376153759692694 -0.07672802164973563 -0.3373651214123886 0.4713040948294724 0 0 0 0
273738000 0.03706046799287097 -0.07844590156352092 -0.32055714273214875 0.4802725005500021 0 0 0 0
282536000 0.03598746962094982 -0.07964054711452291 -0.3030066835759568 0.4875718131041823 0 0 0 0
291334000 0.03477554241225855 -0.08178769812830028 -0.2856646613282182 0.4932035835620282 0 0 0 0
300132000 0.032716302211230154 -0.08397653113349715 -0.2701636599584152 0.4974276459637126 0 0 0 0
308930000 0.03126216630684633 -0.08662811343774124 -0.2547984037729721 0.5017367498139204 0 0 0 0
317728000 0.029659434079644692 -0.08860225933937434 -0.2397481444172524 0.5058530747266139 0 0 0 0
326526000 0.027950910363746487 -0.09015440082965445 -0.2257086593504378 0.5102744245072424 0 0 0 0
335324000 0.02540017308818622 -0.09282162309381764 -0.21190996703843476 0.5142235087007067 0 0 0 0
344122000 0.02320628257520509 -0.09488505773925776 -0.19678228096410347 0.5177232478238807 0 0 0 0
352920000 0.02244423380672819 -0.09712854010587571 -0.18056657602734436 0.5212625429672353 0 0 0 0
361718000 0.01991634151394454 -0.09991883271583246 -0.16574680792485683 0.5223080782207612 0 0 0 0
370516000 0.018127751613003104 -0.1023056673085623 -0.15037330973293597 0.5222755516940703 0 0 0 0
379314000 0.016743633825958698 -0.10484288224733225 -0.1388659713827451 0.5202560052803522 0 0 0 0
388112000 0.015170311676470294 -0.10784902341113138 -0.1309361890571707 0.5201710943456469 0 0 0 0
396910000 0.014273323110121928 -0.11095946737022026 -0.12386289585069556 0.5246221404369563 0 0 0 0
405708000 0.012606033043092216 -0.11371899620309729 -0.11513971203306617 0.532310490106369 0 0 0 0
414506000 0.011096121819311498 -0.11648204175658158 -0.10156763152636351 0.5417150848682586 0 0 0 0
423304000 0.010483740781517838 -0.11949422941901755 -0.08513716212588186 0.5495321162060561 0 0 0 0
432102000 0.009811856134585743 -0.12282898358899853 -0.0665574099729961 0.5556497364985776 0 0 0 0
440900000 0.008566923450144414 -0.1253105202740928 -0.04645004133728633 0.5588119762003231 0 0 0 0
449698000 0.0075562900872169 -0.1284072837121209 -0.02668417737468799 0.5603076305963595 0 0 0 0
458496000 0.00690366665963612 -0.13065066083957544 -0.008137969162705757 0.5604510873113805 0 0 0 0
467294000 0.006281294294770165 -0.13231779879666591 0.010981061862056198 0.5592320395725469 0 0 0 0
476092000 0.005837504925153846 -0.13444102563355198 0.028571933690277135 0.5566118436556201 0 0 0 0
484890000 0.0050306909639550035 -0.1369562334323851 0.04730466417655711 0.5526483253111034 0 0 0 0
493688000 0.003939510195054929 -0.13894675106921636 0.0639299537733683 0.5484731177504725 0 0 0 0
502486000 0.0032095342892229815 -0.14067403355002922 0.08005847153205033 0.5435535764612842 0 0 0 0
511284000 0.0023615255222899697 -0.14244030229787097 0.09627885922830685 0.5381749449638181 0 0 0 0
520082000 0.001127516503278296 -0.14416905042806408 0.11016943116042333 0.5324896683452193 0 0 0 0
528880000 0.00048487426132715327 -0.14587406867951483 0.12410703151805552 0.5262498905880655 0 0 0 0
537678000 -0.0004942783658781913 -0.14737012626987214 0.13692688131918168 0.5205616720527277 0 0 0 0
546476000 -0.0013746826077460593 -0.14925131896683164 0.15062835745375647 0.5147144762791996 0 0 0 0
555274000 -0.0020593935727651743 -0.15044622983699196 0.162708384900383 0.5097527315481671 0 0 0 0
564072000 -0.004220546505545813 -0.15206333323884055 0.17480085798318015 0.5049727309126524 0 0 0 0
572870000 -0.0059946247195016514 -0.15398718186427993 0.18753373542066315 0.5002087256897749 0 0 0 0
581668000 -0.007590485573327339 -0.1543189541017251 0.20105194548487207 0.49554099085790776 0 0 0 0
590466000 -0.008219952286034386 -0.1554399034233137 0.21480946220464844 0.4905758372418655 0 0 0 0
599264000 -0.009876908027166531 -0.15628425253052713 0.22844776929246285 0.48538522484520824 0 0 0 0
608062000 -0.011671904509701072 -0.1568797792998704 0.2429603089489277 0.4789847011039554 0 0 0 0
616860000 -0.014149993796645166 -0.15866580045232495 0.2580380648921811 0.472365942689029 0 0 0 0
625658000 -0.016096062455074646 -0.15892662726269674 0.27348043403065914 0.4649290130373053 0 0 0 0
634456000 -0.019104262868122193 -0.16050410054904612 0.2878781632388405 0.45681628950087094 0 0 0 0
643254000 -0.021319649784434163 -0.16107739653944453 0.302395057059388 0.4472915139621892 0 0 0 0
652052000 -0.024015843674652065 -0.16189880728862577 0.31800392592667526 0.4367764781822887 0 0 0 0
660850000 -0.026869496631451047 -0.16319277355000292 0.33156588401177833 0.4251640901724887 0 0 0 0
669648000 -0.029035818841191576 -0.1642129666252041 0.3455301957009331 0.4126795540596483 0 0 0 0
678446000 -0.03087703865818949 -0.16515950396426893 0.35905147451222136 0.3981429057823385 0 0 0 0
687244000 -0.03318760033650621 -0.16669163965639244 0.3714182489215317 0.3831405331745477 0 0 0 0
696042000 -0.035415715858240986 -0.16847454011361787 0.38113130022726327 0.3675670302127086 0 0 0 0
704840000 -0.03799012118650165 -0.17031405200219787 0.3908705746033077 0.34978952960251164 0 0 0 0
713638000 -0.04000764276810371 -0.17130553807212406 0.3971667389929362 0.333713624663889 0 0 0 0
722436000 -0.04190603910068398 -0.17235903921030402 0.4018271555529907 0.3172942897007244 0 0 0 0
731234000 -0.04414036480286851 -0.17387773881136875 0.4047700644047235 0.30221764129067613 0 0 0 0
740032000 -0.047190443779652536 -0.17499253587804703 0.4068314787879432 0.2876698480559586 0 0 0 0
748830000 -0.049030610211972074 -0.17619320383643225 0.40784182855444845 0.27438155887335464 0 0 0 0
757628000 -0.051767482748251235 -0.17736681550133818 0.40849864871517944 0.2638084247274717 0 0 0 0
766426000 -0.05354035592643277 -0.1790760488965645 0.40923948708068725 0.25402710594812467 0 0 0 0
775224000 -0.05626795719239725 -0.1809988438286118 0.41046056923514984 0.2459978488813485 0 0 0 0
784022000 -0.059470427554442346 -0.1808720194516012 0.41311261836522256 0.23842328239842422 0 0 0 0
792820000 -0.060943511229483785 -0.1815116341275676 0.41644937297931944 0.23223372221035363 0 0 0 0
801618000 -0.06357252269326291 -0.18252779610954686 0.42189374863798845 0.22483103489453632 0 0 0 0
810416000 -0.065594817721113 -0.1844690069200863 0.4278702787752206 0.2163286612363811 0 0 0 0
819214000 -0.06771797287735938 -0.18641661713147695 0.43432908121980746 0.20944293502848177 0 0 0 0
828012000 -0.06908293777760333 -0.18749232902142035 0.44071731913925 0.19978235191888996 0 0 0 0
836810000 -0.06974352349260667 -0.18881352961053652 0.4480599524660372 0.18964308898041077 0 0 0 0
845608000 -0.07162177081824302 -0.1895347827093906 0.4552662780522643 0.17968721331279283 0 0 0 0
854406000 -0.07416678807593323 -0.190233502030074 0.46352453979553154 0.1650649825156373 0 0 0 0
863204000 -0.07550467587421603 -0.19111967420288212 0.4694808397934023 0.15460845084243396 0 0 0 0
872002000 -0.0777517668770997 -0.1924156566922086 0.4759967332721095 0.14119611444161334 0 0 0 0
880800000 -0.07970728640466447 -0.19320456643172518 0.48231528881822555 0.126011104286373 0 0 0 0
889598000 -0.08152676806238039 -0.19408037118313043 0.48673547535951556 0.11242805221495401 0 0 0 0
898396000 -0.08323099209430952 -0.1950501756903468 0.4910782517096388 0.09635398530905721 0 0 0 0
907194000 -0.08534038985687428 -0.19542496097004794 0.4949908541911914 0.08028527454832948 0 0 0 0
915992000 -0.08748019461823489 -0.1954870008873969 0.49707391751637514 0.06421692549680942 0 0 0 0
924790000 -0.08986410846986267 -0.19688137364510647 0.4993197792836586 0.0477864861962294 0 0 0 0
933588000 -0.09223663951034247 -0.19728921703579297 0.5007542395110395 0.030852482805867994 0 0 0 0
942386000 -0.09414277053459963 -0.19904399586393606 0.5005041633809342 0.013120730020251332 0 0 0 0
951184000 -0.09593766148689772 -0.19940729584590663 0.4996256956174099 -0.0030834763741722595 0 0 0 0
959982000 -0.09747986489849379 -0.20044229151024406 0.4965503096631855 -0.02124980214174607 0 0 0 0
968780000 -0.10052326323691009 -0.20139613069691734 0.49312958105223675 -0.038952972036617135 0 0 0 0
977578000 -0.10227261511649798 -0.20234126273545072 0.4879131574042211 -0.054707539692371895 0 0 0 0
986376000 -0.1045801143900664 -0.20318196316096468 0.4815407705903235 -0.07080432438372046 0 0 0 0
995174000 -0.1065196995064083 -0.2044333261242779 0.4737789462245198 -0.08501980285001615 0 0 0 0
1003972000 -0.10893883287429006 -0.2053536323363251 0.465859824732922 -0.09873503818481799 0 0 0 0
1012770000 -0.11085427123941057 -0.20611362254462698 0.4572380639703529 -0.11078285564863927 0 0 0 0
1021568000 -0.11242560123957872 -0.2066642799914048 0.44966759890093017 -0.12002875944352322 0 0 0 0
1030366000 -0.11489638096351688 -0.20719912015360367 0.4406383569540864 -0.1299483433104698 0 0 0 0
1039164000 -0.1160548131703155 -0.20793857639502702 0.43354198002444483 -0.13782931828669823 0 0 0 0
1047962000 -0.1182197251397974 -0.20846876055540642 0.4264382371932737 -0.1450254009817729 0 0 0 0
1056760000 -0.11985889484496066 -0.20898629282737252 0.42090323902897114 -0.15328726430767464 0 0 0 0
1065558000 -0.12164335027740712 -0.20914904130540934 0.41454047656911697 -0.16126741551960144 0 0 0 0
1074356000 -0.12341023871026559 -0.20993755869562922 0.41074138259338394 -0.16641858751491326 0 0 0 0
1083154000 -0.12572578871117912 -0.2093263924632003 0.4060077352114714 -0.17327978661633206 0 0 0 0
1091952000 -0.12744340539727442 -0.21044704496270697 0.4021212143933242 -0.18156833107613887 0 0 0 0
1100750000 -0.12964799463620957 -0.2108060361308965 0.39895525024679995 -0.1897169039836148 0 0 0 0
1109548000 -0.13123889778614986 -0.20984866224390206 0.39601040684521427 -0.19780838791315183 0 0 0 0
1118346000 -0.13279240428819572 -0.2094017461525606 0.3927201757819084 -0.20760029742179564 0 0 0 0
1127144000 -0.13413899464938284 -0.21072784700146302 0.3889774401024809 -0.21718067443693703 0 0 0 0
1135942000 -0.13643033061565218 -0.2104407772274492 0.38491760901578015 -0.22843293850200416 0 0 0 0
1144740000 -0.13830302487515228 -0.21074257312485514 0.38093433164439644 -0.23918791380889914 0 0 0 0
1153538000 -0.13923192163731105 -0.21063311311686525 0.3760360101578355 -0.24930384919864806 0 0 0 0
1162336000 -0.14139051046376316 -0.21070198016654865 0.3695587280951681 -0.26213336289817396 0 0 0 0
1171134000 -0.14262643442462877 -0.21084758909317153 0.362879583069929 -0.27287718744848277 0 0 0 0
1179932000 -0.14412109751218916 -0.21059907496925054 0.35616331372173177 -0.28307417796803425 0 0 0 0
1188730000 -0.14582823545250792 -0.21004105615838398 0.3478560031932999 -0.2957833022896481 0 0 0 0
1197528000 -0.14833328074316257 -0.2092385891933061 0.33888892900747575 -0.30692213096246607 0 0 0 0
1206326000 -0.14966722429087334 -0.20935509841454591 0.3294384954581972 -0.3171399934640382 0 0 0 0
1215124000 -0.15177179965314258 -0.208548964023922 0.31925190618003146 -0.3270122990404501 0 0 0 0
1223922000 -0.15291294221666019 -0.20859502094509585 0.3076569364417399 -0.33725264349006995 0 0 0 0
1232720000 -0.15527096469914134 -0.20749560774546358 0.29521206807728173 -0.3464081852115733 0 0 0 0
1241518000 -0.157547210449198 -0.20840853562599684 0.283223452984019 -0.3550193024628402 0 0 0 0
1250316000 -0.15897444547972434 -0.2074394135821863 0.27265688902781804 -0.3608963888204508 0 0 0 0
1259114000 -0.16130020360819958 -0.20667811977511302 0.25777299638782836 -0.3688911173198758 0 0 0 0
1267912000 -0.16309210332097038 -0.20605700984945785 0.2455261559780419 -0.3731459338058185 0 0 0 0
1276710000 -0.16414881948555407 -0.2062932129574577 0.23363040140809097 -0.3764902883145408 0 0 0 0
1285508000 -0.16627644826619162 -0.2070499675625098 0.2216986868768107 -0.3807558818753151 0 0 0 0
1294306000 -0.16734859955969922 -0.20548191917577738 0.20917050530799045 -0.3842845739382914 0 0 0 0
1303104000 -0.17195113178359506 -0.20354163582910406 0.1976227770689878 -0.3859422456778932 0 0 0 0
1311902000 -0.17401336701447145 -0.20396403572944094 0.18488570378765032 -0.3897326923585009 0 0 0 0
1320700000 -0.17637731158350772 -0.20467020678897532 0.17417922568809333 -0.391664201150179 0 0 0 0
1329498000 -0.17708867852245588 -0.2048154815136424 0.1637673886360676 -0.3930649370757903 0 0 0 0
1338296000 -0.17985905927628862 -0.2046640971789593 0.15249459665144144 -0.39583141934346694 0 0 0 0
1347094000 -0.18143395910395285 -0.20425743416647701 0.14331439563957474 -0.3962261973137455 0 0 0 0
1355892000 -0.18446882934643535 -0.20415103333573356 0.133849745535073 -0.39778411282262927 0 0 0 0
1364690000 -0.18494848697629399 -0.20209841643876314 0.12523608269030023 -0.39894879360709207 0 0 0 0
1373488000 -0.18576683145623515 -0.20212439578186683 0.11696049458578225 -0.3999989724431237 0 0 0 0
1382286000 -0.1902512610601187 -0.2035560865626276 0.10681588071840024 -0.40214182991714814 0 0 0 0
1391084000 -0.19210113101050683 -0.20308450009325357 0.09927100022914857 -0.4036666729783068 0 0 0 0
1399882000 -0.19176352843281108 -0.20189572444401105 0.08984027275176756 -0.4057513032407311 0 0 0 0
1408680000 -0.19372799415934652 -0.202702399979974 0.08082868715110396 -0.4079063345609812 0 0 0 0
1417478000 -0.19658222389854468 -0.20280835162198715 0.06954417759631923 -0.4114001155437185 0 0 0 0
1426276000 -0.19755817719706753 -0.20388298773533411 0.06129780683644803 -0.4129295848146065 0 0 0 0
1435074000 -0.19952650512069253 -0.20382826285530464 0.050130136153767525 -0.41545462565244173 0 0 0 0
1443872000 -0.2004967849500802 -0.2023100995746748 0.04074606878116987 -0.4176565366431445 0 0 0 0
1452670000 -0.2014287537527359 -0.20236824916904 0.028746216431631118 -0.42014558752421177 0 0 0 0
1461468000 -0.2027612298585367 -0.20153494120668083 0.018356054773086137 -0.42185870260267955 0 0 0 0
1470266000 -0.20376837737719944 -0.20122347045156166 0.006370910792052692 -0.4229304728431839 0 0 0 0
1479064000 -0.20415066166075413 -0.20181919603368276 -0.006573540615285 -0.4238669767356811 0 0 0 0
1487862000 -0.2058192129081856 -0.20033936492105664 -0.01997458541805687 -0.42397023908591924 0 0 0 0
1496660000 -0.20537290331806293 -0.20112795643644055 -0.03283159736655785 -0.4233987314183851 0 0 0 0
1505458000 -0.20748619899072487 -0.20040672016263933 -0.04570270145124201 -0.4224676568117727 0 0 0 0
1514256000 -0.20775565386483288 -0.19997340464109473 -0.05962293108348342 -0.4196557028588491 0 0 0 0
1523054000 -0.20948279927885038 -0.1993949479048684 -0.07437379966848418 -0.4166459223462508 0 0 0 0
1531852000 -0.2116210027695148 -0.1985951985793189 -0.08480039710559054 -0.4131294043401045 0 0 0 0
1540650000 -0.21251723357545127 -0.19793959711183953 -0.09680613278849576 -0.4086583293422029 0 0 0 0
1549448000 -0.21297924644393262 -0.19761088641553387 -0.10735695561795848 -0.4039872074164698 0 0 0 0
1558246000 -0.21337527262638065 -0.1960836874191028 -0.11796598912315814 -0.3992891479852818 0 0 0 0
1567044000 -0.21433408206400617 -0.19483528489309945 -0.1283697766245973 -0.39262522888066587 0 0 0 0
1575842000 -0.21542680158258878 -0.1939743381307162 -0.14017327323378131 -0.3863406699806485 0 0 0 0
1584640000 -0.21657705956305032 -0.19123307867530018 -0.15106444352390708 -0.3798890540500589 0 0 0 0
1593438000 -0.21616565814052893 -0.19088268941263445 -0.15673415547291988 -0.3746582771986615 0 0 0 0
1602236000 -0.2173900905074555 -0.1893722634847317 -0.16730882555272122 -0.36846358361620385 0 0 0 0
1611034000 -0.2192071071999789 -0.18800679177348303 -0.17453753646353753 -0.3633379661558808 0 0 0 0
1619832000 -0.2214963183315036 -0.18574232678329428 -0.18297642955097165 -0.3576909968781549 0 0 0 0
1628630000 -0.22191277638433604 -0.1848420961551095 -0.19190822427244641 -0.3515154931606767 0 0 0 0
1637428000 -0.22245557877261327 -0.1843961538841885 -0.1985714827077996 -0.346479665472637 0 0 0 0
1646226000 -0.22455854819106497 -0.18276703377108697 -0.2083258923691838 -0.33908278292971966 0 0 0 0
1655024000 -0.22603900215582515 -0.18083404538698516 -0.21492593722462386 -0.33255532642844987 0 0 0 0
1663822000 -0.22727196177747608 -0.17899922035971005 -0.2219690830271528 -0.32573620768945977 0 0 0 0
1672620000 -0.22954979933278935 -0.17721145812630565 -0.2288325980566938 -0.31878951366084884 0 0 0 0
1681418000 -0.22991803786965925 -0.17641343358577 -0.23368300723989321 -0.31358216990869753 0 0 0 0
1690216000 -0.23214054278514276 -0.17522042690966091 -0.24131679813216006 -0.3060030582180615 0 0 0 0
1699014000 -0.23343306681948395 -0.17372456215724388 -0.2472369188176135 -0.299604294270214 0 0 0 0
1707812000 -0.23516905058958237 -0.17226242333656086 -0.25282566314418753 -0.2946202080228328 0 0 0 0
1716610000 -0.23575889879693313 -0.17141575542668105 -0.2589450295928819 -0.2891992309592555 0 0 0 0
1725408000 -0.2370819128102077 -0.16951507263206683 -0.2643455868551553 -0.28554376389689795 0 0 0 0
1734206000 -0.23853979033974154 -0.16815617525785612 -0.27178847813713825 -0.2814414005557817 0 0 0 0
1743004000 -0.2400041775017509 -0.16714118202317782 -0.28041166100703807 -0.27593930772219255 0 0 0 0
1751802000 -0.24161897773103846 -0.16602688097721482 -0.2893062334735449 -0.270466245814311 0 0 0 0
