# HZ S RI R 50
1000000 0.5314378418843975 -0.23677039680009174 -1.831447557551587 -0.23572446437387717 0 0 0 0
9798000 0.09857531294868471 -0.15637107110932716 -0.3360185401281165 0.3703331469816108 0 0 0 0
18596000 0.06197321083210132 -0.09523673823909183 -0.29510272936684706 0.20682572172153535 0 0 0 0
27394000 0.053089906006600456 -0.07087075537301668 -0.28564991173494897 0.1547252085899511 0 0 0 0
36192000 0.04968828396166209 -0.05901448449304436 -0.2802400690546209 0.13164630462989083 0 0 0 0
44990000 0.049022037963312004 -0.05213569166476901 -0.27636773962691874 0.11955825119714818 0 0 0 0
53788000 0.04743233081656509 -0.04941085557881122 -0.2735899048788691 0.11277205088204886 0 0 0 0
62586000 0.046822549438767264 -0.04706409856555063 -0.27199125664820395 0.10984643876130953 0 0 0 0
71384000 0.04722618022353765 -0.04687005198692295 -0.27112019838151136 0.10892155473100057 0 0 0 0
80182000 0.047748566325027116 -0.04621085435892961 -0.2709948181768872 0.11036695432539605 0 0 0 0
88980000 0.04637843370005629 -0.04657859890391549 -0.27113045069684427 0.11351262542546642 0 0 0 0
97778000 0.04652451149750133 -0.04794331912612014 -0.2705511644757694 0.11858478915704106 0 0 0 0
106576000 0.046504229458736966 -0.04833932328855813 -0.26963771439237594 0.12526207409647244 0 0 0 0
115374000 0.04671278510969166 -0.048875834950748626 -0.26747540424518207 0.13279943559076804 0 0 0 0
124172000 0.04719229440248364 -0.05055740200512794 -0.2644599408339828 0.14022117203874424 0 0 0 0
132970000 0.04869248766627397 -0.05261037974750622 -0.2599483424644185 0.14756116103691244 0 0 0 0
141768000 0.04837749964243337 -0.05259340090258185 -0.25756187292253724 0.15473517513758003 0 0 0 0
150566000 0.048393660761101485 -0.05410017837566496 -0.252585210112201 0.16186405693707703 0 0 0 0
159364000 0.048355076585359744 -0.05521200680739399 -0.24702628667682605 0.16830626615206437 0 0 0 0
168162000 0.04765547655082279 -0.05681275648065516 -0.24162235485007433 0.17412390460696536 0 0 0 0
176960000 0.047009611626639365 -0.05831592209949512 -0.2361498553056004 0.17980614891323918 0 0 0 0
185758000 0.04596865581742214 -0.06096831220963502 -0.23142974013787318 0.18497001977162147 0 0 0 0
194556000 0.04595866218315988 -0.06248922853205738 -0.22674590094614933 0.19068517130951296 0 0 0 0
203354000 0.04512137264414373 -0.06433797149766117 -0.2220898409990023 0.19585328857133769 0 0 0 0
212152000 0.04440763029722264 -0.06589167710889889 -0.2174659097520319 0.20209845916536814 0 0 0 0
220950000 0.044116634108837455 -0.0678290816930103 -0.2130914873077748 0.20822663383697998 0 0 0 0
229748000 0.04364494975203135 -0.06954131513950429 -0.20750276446916394 0.21479306035591114 0 0 0 0
238546000 0.04251360026386029 -0.07112291421623294 -0.2013657350009987 0.2225619128255592 0 0 0 0
247344000 0.04143692515648459 -0.0722921524293132 -0.19441937131948278 0.22865345422288907 0 0 0 0
256142000 0.0403376336668563 -0.07421696984215762 -0.18673548035151843 0.23513907136376697 0 0 0 0
264940000 0.038030039775909005 -0.07669755455560688 -0.17840637266642959 0.24075619102108856 0 0 0 0
273738000 0.03762740161010983 -0.07803524607167635 -0.16993922091638258 0.2457421820996006 0 0 0 0
282536000 0.03627153468933069 -0.07949362533564748 -0.1610406532746181 0.24980093904959533 0 0 0 0
291334000 0.03525879470422074 -0.08145073752217373 -0.15251698427284366 0.25309688358722854 0 0 0 0
300132000 0.03300047090130566 -0.08401469846709346 -0.14451058592422414 0.25584419301294525 0 0 0 0
308930000 0.03166926239113805 -0.08653566976774743 -0.13680351990058354 0.25818135541774423 0 0 0 0
317728000 0.029835866860705003 -0.0885538074288685 -0.12909079321437772 0.2607691757127443 0 0 0 0
326526000 0.028021104946959453 -0.09034468354183625 -0.1219357569455997 0.26347499026785304 0 0 0 0
335324000 0.025861583166126828 -0.09293644958995853 -0.11480102479982145 0.2659241468782267 0 0 0 0
344122000 0.02346123040326646 -0.09515238431495339 -0.10686034183420809 0.26807348721896124 0 0 0 0
352920000 0.022133322623587096 -0.09753065983133473 -0.0988047020134304 0.2703792615706627 0 0 0 0
361718000 0.02033890583615004 -0.10001626380367955 -0.09077362331683887 0.27122108968766545 0 0 0 0
370516000 0.018629747888864918 -0.10234713899923156 -0.08280873268512173 0.27164353287553766 0 0 0 0
379314000 0.017561131915686014 -0.10518736310690016 -0.0767241540025738 0.27071697936920497 0 0 0 0
388112000 0.015792408863708543 -0.10816849905782973 -0.07263177280743213 0.27110942839453034 0 0 0 0
396910000 0.01480204415592454 -0.11113531303334055 -0.06877639878455608 0.2739467603234915 0 0 0 0
405708000 0.013211191903632024 -0.11396480386493645 -0.06400083442515735 0.2786383724862854 0 0 0 0
414506000 0.011560321814820368 -0.11677140708474212 -0.05665510583821389 0.28379220526405163 0 0 0 0
423304000 0.010745617570383935 -0.11988123993814735 -0.04759708015364738 0.2883099979499902 0 0 0 0
432102000 0.010493355143495023 -0.12329969953243453 -0.037358576540980785 0.2917000893628162 0 0 0 0
440900000 0.009343401140713675 -0.12573282061662422 -0.02638313283519182 0.2937702027940872 0 0 0 0
449698000 0.008597894923508423 -0.12848503767965963 -0.015925814327019033 0.29458776200732284 0 0 0 0
458496000 0.007770175960160115 -0.13110447245441734 -0.005507901037410909 0.2945706975653378 0 0 0 0
467294000 0.007320338374206295 -0.13252786775129244 0.005036775763992079 0.29399302715204334 0 0 0 0
476092000 0.006917384493677281 -0.13465293445676113 0.014455163481786841 0.29224032306772385 0 0 0 0
484890000 0.005947380046227953 -0.1371534617432092 0.024798991534922724 0.29022098106809097 0 0 0 0
493688000 0.005000945564846894 -0.13879551888779443 0.03379235921763736 0.28779366652878297 0 0 0 0
502486000 0.003937579300758454 -0.14074878750175965 0.04244240030619267 0.2848630435015769 0 0 0 0
511284000 0.0031952834942408927 -0.14241700516689393 0.0513929104949846 0.28167994426155 0 0 0 0
520082000 0.0020011820461261066 -0.14409257168101172 0.05870585643634705 0.27844089734228267 0 0 0 0
528880000 0.0013152056685291097 -0.14591996202177496 0.06595917389229128 0.27492081619093245 0 0 0 0
537678000 0.0001005796057214769 -0.1475751137970778 0.0729663002897186 0.27172804132630735 0 0 0 0
546476000 -0.0004289647456324863 -0.14928027046575293 0.07979181688179612 0.2684184593077237 0 0 0 0
555274000 -0.0010895043169243525 -0.1503310802147126 0.08648079016479675 0.26522605381860354 0 0 0 0
564072000 -0.003556636651900674 -0.15159078688531846 0.0927287512243395 0.26252469039252335 0 0 0 0
572870000 -0.005233279547220693 -0.15372426756224586 0.09920423227631982 0.25977090718962326 0 0 0 0
581668000 -0.006907149995259593 -0.15393615528501636 0.10624737530082741 0.25674724591648684 0 0 0 0
590466000 -0.007340174483690123 -0.15512481359257202 0.11324244297058374 0.2539657959719911 0 0 0 0
599264000 -0.009061418293812093 -0.15605118801094825 0.1202629197696468 0.2509943881867741 0 0 0 0
608062000 -0.011348485469846964 -0.15652569788590845 0.1278604754905731 0.2474024520574009 0 0 0 0
616860000 -0.013517062239700775 -0.1584177894179762 0.13508650876948353 0.24368510010730224 0 0 0 0
625658000 -0.015688566109637737 -0.15878691044406937 0.14329787230775595 0.2396093463161374 0 0 0 0
634456000 -0.018324285207596647 -0.15983797385662232 0.15067719296295867 0.23509572598782638 0 0 0 0
643254000 -0.021082223481733917 -0.16084113736747938 0.15782310595593219 0.22977682328337823 0 0 0 0
652052000 -0.02369380083650153 -0.16152883121735767 0.1655941812191452 0.22421192329129502 0 0 0 0
660850000 -0.026547447556311537 -0.16282976279749697 0.17244676618243684 0.2181855709541368 0 0 0 0
669648000 -0.02860409331710673 -0.1638811534808242 0.17951582999571747 0.2111322118214697 0 0 0 0
678446000 -0.030484758141046887 -0.16501965598830803 0.18608997483359158 0.20391636257145954 0 0 0 0
687244000 -0.03325426083023144 -0.16641715217081524 0.19229872610599036 0.19577048090218047 0 0 0 0
696042000 -0.03536632138180777 -0.16822343821216343 0.19721115501382355 0.18735834654406658 0 0 0 0
704840000 -0.037629213238924146 -0.17029253177519 0.20167435542272652 0.17815116389670502 0 0 0 0
713638000 -0.03981470630115002 -0.1710604272455481 0.20453184451426648 0.17019598475150166 0 0 0 0
722436000 -0.04161290543451012 -0.17265613058770776 0.20645976565478008 0.16132415851254508 0 0 0 0
731234000 -0.04408423937019764 -0.1739405934689521 0.20766572367948244 0.1536608565521052 0 0 0 0
740032000 -0.04631625642018949 -0.1750853373616064 0.20832389896499665 0.14627357851851283 0 0 0 0
748830000 -0.048892336606748445 -0.1763918701166501 0.20871309170908312 0.1394767483903301 0 0 0 0
757628000 -0.051475926878694775 -0.17771937791262987 0.2084804114881858 0.13424655968715854 0 0 0 0
766426000 -0.0533891108621924 -0.17890308250041984 0.20888993714807716 0.12918854877677552 0 0 0 0
775224000 -0.05560792702520033 -0.1807495251695264 0.2090297256141065 0.1253239693366584 0 0 0 0
784022000 -0.058396203599607774 -0.1808158901764752 0.2100321222531142 0.12140474281481228 0 0 0 0
792820000 -0.059767566122934976 -0.18166575943355642 0.21168887253771274 0.11842407651329685 0 0 0 0
801618000 -0.06291585987825354 -0.18262337692869476 0.21430504576896853 0.11474429108190957 0 0 0 0
810416000 -0.06433634440499095 -0.1841844706864318 0.21695461900437046 0.11100538731229628 0 0 0 0
819214000 -0.06763066475863372 -0.18630254880717015 0.22033437949296597 0.1073531316130723 0 0 0 0
828012000 -0.06860730835386337 -0.1876400737876444 0.22340031554546544 0.10268809637025564 0 0 0 0
836810000 -0.0687258272391642 -0.18895279290184597 0.22717907952405467 0.0979502792456035 0 0 0 0
845608000 -0.07133091560585676 -0.1896647480255082 0.23084121697977206 0.09310023347392764 0 0 0 0
854406000 -0.07345570369098355 -0.19000408697689597 0.2348906689301726 0.08615849357885985 0 0 0 0
863204000 -0.07528242400713898 -0.19103407754959753 0.23815177121840475 0.08076444654582778 0 0 0 0
872002000 -0.0775244161313548 -0.19230103467391463 0.24146122039290244 0.07395764200246432 0 0 0 0
880800000 -0.07913422127194665 -0.1928660738210449 0.24473666977610284 0.06680745451484114 0 0 0 0
889598000 -0.08137741001848783 -0.1937512758611368 0.24713816678439726 0.05958762818271495 0 0 0 0
898396000 -0.08325970585594865 -0.1952962461398579 0.2496035997816008 0.05172247941323015 0 0 0 0
907194000 -0.0854098962993158 -0.195452633883183 0.2518467815251326 0.043379436297817604 0 0 0 0
915992000 -0.0875533769846521 -0.19550319773077618 0.25312654741699586 0.03574089499463981 0 0 0 0
924790000 -0.0898647188111366 -0.1967248058103211 0.2541717804447756 0.027180039342453045 0 0 0 0
933588000 -0.09204789085301815 -0.19737938317700218 0.2549571086387022 0.018650031642579747 0 0 0 0
942386000 -0.09377910839786721 -0.19906114852684811 0.25484952599002547 0.00952200084724765 0 0 0 0
951184000 -0.09591123186925983 -0.1994714599972347 0.25434977622694865 0.001254575894573529 0 0 0 0
959982000 -0.0975894459750732 -0.20052570910796547 0.25268421036139543 -0.008142007762402438 0 0 0 0
968780000 -0.10047379679823387 -0.20139236206820427 0.25085120651539766 -0.01650852911816312 0 0 0 0
977578000 -0.10240374066754312 -0.2024930819516032 0.24840969395898505 -0.02475344519022143 0 0 0 0
986376000 -0.10459818876184244 -0.20328763451589588 0.24528996812548431 -0.033023580241525616 0 0 0 0
995174000 -0.1063714343788217 -0.20429006428763236 0.24145327561377156 -0.040020611281815215 0 0 0 0
1003972000 -0.10873591724207339 -0.20545813791479514 0.23720321331911226 -0.04686757196311148 0 0 0 0
1012770000 -0.11094705256646506 -0.20610466077466305 0.23290459039101505 -0.05261451572067461 0 0 0 0
1021568000 -0.1123444856557693 -0.20674264369955608 0.22899744604945257 -0.05756319723433523 0 0 0 0
1030366000 -0.11511465644574999 -0.20721383366282795 0.22452322766309954 -0.06241384966221037 0 0 0 0
1039164000 -0.11600620702312621 -0.20794710665352784 0.22097618433637542 -0.06621056335458447 0 0 0 0
1047962000 -0.11817954618417063 -0.20831184490554053 0.21761510693923614 -0.0697491435476707 0 0 0 0
1056760000 -0.11994015545367823 -0.20922631339825634 0.21468361159786734 -0.0737840176557994 0 0 0 0
1065558000 -0.12137477488890992 -0.20947912408389077 0.21183892126205975 -0.07773374027289902 0 0 0 0
1074356000 -0.1234172269520735 -0.20983133456087835 0.2100723873563969 -0.07985406226972992 0 0 0 0
1083154000 -0.1257911053410492 -0.21025338312300032 0.20812512121187118 -0.08353782228055567 0 0 0 0
1091952000 -0.12748301784785007 -0.21022441409760526 0.20625116026668838 -0.08776738822907935 0 0 0 0
1100750000 -0.1292937717575809 -0.2107158632051547 0.20472376769668352 -0.09172921912968457 0 0 0 0
1109548000 -0.1314503273615659 -0.2096197625077547 0.2035693296925243 -0.09598587714303278 0 0 0 0
1118346000 -0.13288986619949902 -0.21011936525401104 0.20222245632778466 -0.10069025134224711 0 0 0 0
1127144000 -0.13424752764733372 -0.21101455009883227 0.20070861362858355 -0.10567203655437592 0 0 0 0
1135942000 -0.13674410133378082 -0.2108301130427967 0.19877172819165714 -0.11155271744585754 0 0 0 0
1144740000 -0.13867598693681024 -0.21101848689371577 0.1970549768513476 -0.11714889559124143 0 0 0 0
1153538000 -0.13915466041503344 -0.21111361480516275 0.1948148959134161 -0.12207295781937978 0 0 0 0
1162336000 -0.1420499224165723 -0.21103756600822998 0.19187578606852368 -0.1285921472425561 0 0 0 0
1171134000 -0.14290743300539474 -0.21142322856888326 0.1883971702806611 -0.1347432217342062 0 0 0 0
1179932000 -0.14489848770121383 -0.21120481973916727 0.1851325124427897 -0.14003016474569616 0 0 0 0
1188730000 -0.14607266079718445 -0.21083760194120973 0.18118922905567955 -0.14640467261881793 0 0 0 0
1197528000 -0.14902432262034523 -0.20990269872336798 0.1767704659934569 -0.15241476990146127 0 0 0 0
1206326000 -0.15034550090973017 -0.21029052166853793 0.17209101008350414 -0.15759548084552036 0 0 0 0
1215124000 -0.152439224945098 -0.2093685878700784 0.16707054437968408 -0.16294720118553618 0 0 0 0
1223922000 -0.15336647601407127 -0.20975181549028188 0.1614143987643092 -0.1678472294000527 0 0 0 0
1232720000 -0.1559041570913601 -0.20828385735520258 0.15490754657365152 -0.17300494099133318 0 0 0 0
1241518000 -0.15791025011540613 -0.20934927938273837 0.1485486064818031 -0.17722283266690364 0 0 0 0
1250316000 -0.1598008402552027 -0.2085003783426998 0.14341051632379861 -0.18060973206816625 0 0 0 0
1259114000 -0.1617086630592704 -0.2076485501751364 0.1364397026876126 -0.18432068850247388 0 0 0 0
1267912000 -0.16375032756664343 -0.20706006256161597 0.13025127809994008 -0.18660269922292874 0 0 0 0
1276710000 -0.1646085975749247 -0.20786288290296628 0.1240311932281643 -0.18868619787159335 0 0 0 0
1285508000 -0.16663820917748867 -0.20847113801264033 0.1182307835177795 -0.1904396193765942 0 0 0 0
1294306000 -0.16794231236546334 -0.20753092730450542 0.11231627397833685 -0.19258771593280494 0 0 0 0
1303104000 -0.1726095349809741 -0.20492998884114758 0.10627596148107334 -0.19362632293873425 0 0 0 0
1311902000 -0.17407787810930622 -0.20536374603489319 0.09996866095896649 -0.19549732015840807 0 0 0 0
1320700000 -0.17651934937752015 -0.20593703986746986 0.09472184218461946 -0.19667352350442663 0 0 0 0
1329498000 -0.1773451885359749 -0.20581954440845077 0.08984804757018224 -0.19747933074746948 0 0 0 0
1338296000 -0.17906799943524485 -0.2064792949785335 0.08411305683146028 -0.1990014423147181 0 0 0 0
1347094000 -0.18107285806459666 -0.20599610841179603 0.07954890623028879 -0.1994837247182791 0 0 0 0
1355892000 -0.18502907764311255 -0.20475940889338165 0.07486363471149798 -0.20040299803982928 0 0 0 0
1364690000 -0.18507551952560772 -0.20357649048066676 0.07083463199871178 -0.2010325340413429 0 0 0 0
1373488000 -0.1859540687585963 -0.20302314115535622 0.06655864358718623 -0.20208817620755148 0 0 0 0
1382286000 -0.19044276107728283 -0.20491396503534703 0.061476303430409045 -0.20341073672546492 0 0 0 0
1391084000 -0.19251979281713472 -0.20505130313797573 0.0574527115861949 -0.2044525509995769 0 0 0 0
1399882000 -0.19206295542662088 -0.20374244928128546 0.05302520988530059 -0.20583715056726837 0 0 0 0
1408680000 -0.19367001519994748 -0.20300657173054124 0.04823841987313692 -0.20695003170588833 0 0 0 0
1417478000 -0.19700035642792751 -0.20391061887635017 0.04284813054780031 -0.2092187359825764 0 0 0 0
1426276000 -0.1988189988990738 -0.2051023075017257 0.038459307557235714 -0.2104535992443581 0 0 0 0
1435074000 -0.19947814151815105 -0.2050555777667877 0.032911422077761945 -0.21179622057259584 0 0 0 0
1443872000 -0.20084502399653034 -0.20374905011932054 0.027852108471941528 -0.21326507878413298 0 0 0 0
1452670000 -0.20274576522706708 -0.20342760870024618 0.022465537940013637 -0.2146285362674017 0 0 0 0
1461468000 -0.203150178460444 -0.20314898496229242 0.01667599702904465 -0.21572312757401324 0 0 0 0
1470266000 -0.20484727765186542 -0.20250603570753758 0.0105527675270119 -0.21647065459188727 0 0 0 0
1479064000 -0.2053071896287057 -0.2030092715963545 0.0037105178326881038 -0.2173033415327718 0 0 0 0
1487862000 -0.20701101766495392 -0.20216407371965206 -0.003310828636966916 -0.2176756479124679 0 0 0 0
1496660000 -0.20698097990235914 -0.20223199106568795 -0.009614875781673455 -0.2175869214305676 0 0 0 0
1505458000 -0.2083734541440411 -0.2021238676822142 -0.015890817389608566 -0.21732567977059516 0 0 0 0
1514256000 -0.20871268237079174 -0.20176739689994674 -0.022606360385970064 -0.21594427122304033 0 0 0 0
1523054000 -0.21052876710221038 -0.20127136289580655 -0.030458988162015595 -0.21494574775602446 0 0 0 0
1531852000 -0.2125363183206271 -0.20069039785481746 -0.03596573444824344 -0.21323475668184647 0 0 0 0
1540650000 -0.21323619860694093 -0.20053270826987857 -0.04245885385501351 -0.21130281699381231 0 0 0 0
1549448000 -0.21381446628338066 -0.19955482757380846 -0.047832577427981686 -0.20896986708515314 0 0 0 0
1558246000 -0.21414688057394404 -0.19877234935211513 -0.05309024679118214 -0.2066996820812211 0 0 0 0
1567044000 -0.21554416225394224 -0.19731138918025662 -0.058852344603127354 -0.20368193041066782 0 0 0 0
1575842000 -0.21623073975186907 -0.19628052742015561 -0.064839934026606 -0.2006275129173457 0 0 0 0
1584640000 -0.21751959620284453 -0.1939759843161169 -0.07073471469496502 -0.19787708481379254 0 0 0 0
1593438000 -0.21738580616937253 -0.19309772661683922 -0.07348343518974833 -0.19519722794018055 0 0 0 0
1602236000 -0.21795743093572753 -0.19153059030667335 -0.07920532922181406 -0.19229996561667673 0 0 0 0
1611034000 -0.21932443523531986 -0.19051615842748373 -0.0833223281611315 -0.18968779601691999 0 0 0 0
1619832000 -0.2213051501146564 -0.18833648411442155 -0.08725460909979248 -0.18723254496878705 0 0 0 0
1628630000 -0.2218926732852614 -0.18679585346653121 -0.09251274530225317 -0.18397734443647895 0 0 0 0
1637428000 -0.2231606310297777 -0.1864757659253103 -0.0957442678012531 -0.18161362753796428 0 0 0 0
1646226000 -0.22483574537732195 -0.1842764257768537 -0.10081249845015959 -0.17792989967367745 0 0 0 0
1655024000 -0.22653633112108465 -0.1824247142282966 -0.10431839874117786 -0.1747813976741397 0 0 0 0
1663822000 -0.22769971067564884 -0.18062461212626904 -0.10795004632030004 -0.17166093334011323 0 0 0 0
1672620000 -0.23001413239849247 -0.1787904229535753 -0.1118376096827542 -0.16818547968211753 0 0 0 0
1681418000 -0.2306001538719635 -0.1780406755225629 -0.11446901544302017 -0.16545577461750935 0 0 0 0
1690216000 -0.23262122871662433 -0.17669254476082125 -0.1180859163069556 -0.1616276873722524 0 0 0 0
1699014000 -0.23479385421599688 -0.1749547095150969 -0.12120824472457943 -0.15897831742317597 0 0 0 0
1707812000 -0.2356699602722083 -0.1738376652581998 -0.12436310225560501 -0.15617612395147018 0 0 0 0
1716610000 -0.2369192226710736 -0.1726865646924651 -0.1278337227749942 -0.15326969927826123 0 0 0 0
1725408000 -0.23803809783280705 -0.17159141959090893 -0.13035838854890114 -0.1518970879712958 0 0 0 0
1734206000 -0.24025938732723398 -0.16966898478349512 -0.13445523046210411 -0.1500454132280553 0 0 0 0
1743004000 -0.24090966947841666 -0.1690552703671964 -0.13930608369418307 -0.14692362614562443 0 0 0 0
